"Freq [GHz]","re(S(LumpPort_clt1_prime_start,LumpPort_clt1_prime_end)) []","im(S(LumpPort_clt1_prime_start,LumpPort_clt1_prime_end)) []"
4,-0.994870698150517,0.100704092536656
4.00033344448149,-0.994869843388463,0.100712461074853
4.00066688896299,-0.994868988555305,0.100720829606957
4.00100033344448,-0.994868133651043,0.100729198132967
4.00133377792597,-0.994867278675677,0.100737566652885
4.00166722240747,-0.994866423629207,0.100745935166709
4.00200066688896,-0.994865568511633,0.100754303674439
4.00233411137046,-0.994864713322955,0.100762672176075
4.00266755585195,-0.994863858063173,0.100771040671617
4.00300100033344,-0.994863002732287,0.100779409161065
4.00333444481494,-0.994862147330297,0.100787777644419
4.00366788929643,-0.994861291857203,0.100796146121678
4.00400133377793,-0.994860436313005,0.100804514592842
4.00433477825942,-0.994859580697703,0.100812883057911
4.00466822274091,-0.994858725011298,0.100821251516885
4.00500166722241,-0.994857869253788,0.100829619969764
4.0053351117039,-0.994857013425174,0.100837988416547
4.0056685561854,-0.994856157525456,0.100846356857234
4.00600200066689,-0.994855301554634,0.100854725291825
4.00633544514838,-0.994854445512709,0.10086309372032
4.00666888962988,-0.994853589399679,0.100871462142719
4.00700233411137,-0.994852733215545,0.100879830559022
4.00733577859286,-0.994851876960308,0.100888198969227
4.00766922307436,-0.994851020633966,0.100896567373336
4.00800266755585,-0.994850164236521,0.100904935771348
4.00833611203735,-0.994849307767971,0.100913304163263
4.00866955651884,-0.994848451228318,0.10092167254908
4.00900300100033,-0.994847594617561,0.1009300409288
4.00933644548183,-0.994846737935699,0.100938409302422
4.00966988996332,-0.994845881182734,0.100946777669946
4.01000333444482,-0.994845024358665,0.100955146031372
4.01033677892631,-0.994844167463492,0.100963514386699
4.0106702234078,-0.994843310497215,0.100971882735928
4.0110036678893,-0.994842453459834,0.100980251079059
4.01133711237079,-0.994841596351349,0.10098861941609
4.01167055685228,-0.99484073917176,0.100996987747022
4.01200400133378,-0.994839881921067,0.101005356071856
4.01233744581527,-0.99483902459927,0.101013724390589
4.01267089029677,-0.99483816720637,0.101022092703224
4.01300433477826,-0.994837309742365,0.101030461009758
4.01333777925975,-0.994836452207256,0.101038829310192
4.01367122374125,-0.994835594601044,0.101047197604527
4.01400466822274,-0.994834736923728,0.101055565892761
4.01433811270423,-0.994833879175307,0.101063934174894
4.01467155718573,-0.994833021355783,0.101072302450927
4.01500500166722,-0.994832163465155,0.101080670720859
4.01533844614872,-0.994831305503423,0.10108903898469
4.01567189063021,-0.994830447470587,0.10109740724242
4.0160053351117,-0.994829589366647,0.101105775494048
4.0163387795932,-0.994828731191603,0.101114143739575
4.01667222407469,-0.994827872945456,0.101122511979
4.01700566855619,-0.994827014628204,0.101130880212324
4.01733911303768,-0.994826156239848,0.101139248439545
4.01767255751917,-0.994825297780389,0.101147616660663
4.01800600200067,-0.994824439249826,0.10115598487568
4.01833944648216,-0.994823580648158,0.101164353084593
4.01867289096365,-0.994822721975387,0.101172721287404
4.01900633544515,-0.994821863231512,0.101181089484112
4.01933977992664,-0.994821004416533,0.101189457674717
4.01967322440814,-0.99482014553045,0.101197825859218
4.02000666888963,-0.994819286573264,0.101206194037616
4.02034011337112,-0.994818427544973,0.10121456220991
4.02067355785262,-0.994817568445578,0.101222930376101
4.02100700233411,-0.99481670927508,0.101231298536187
4.02134044681561,-0.994815850033478,0.101239666690169
4.0216738912971,-0.994814990720771,0.101248034838046
4.02200733577859,-0.994814131336961,0.101256402979819
4.02234078026009,-0.994813271882047,0.101264771115488
4.02267422474158,-0.994812412356029,0.101273139245051
4.02300766922307,-0.994811552758907,0.101281507368509
4.02334111370457,-0.994810693090681,0.101289875485862
4.02367455818606,-0.994809833351352,0.10129824359711
4.02400800266756,-0.994808973540918,0.101306611702252
4.02434144714905,-0.994808113659381,0.101314979801288
4.02467489163054,-0.99480725370674,0.101323347894218
4.02500833611204,-0.994806393682995,0.101331715981042
4.02534178059353,-0.994805533588145,0.101340084061759
4.02567522507502,-0.994804673422192,0.10134845213637
4.02600866955652,-0.994803813185136,0.101356820204875
4.02634211403801,-0.994802952876975,0.101365188267272
4.02667555851951,-0.99480209249771,0.101373556323563
4.027009003001,-0.994801232047342,0.101381924373747
4.02734244748249,-0.994800371525869,0.101390292417823
4.02767589196399,-0.994799510933293,0.101398660455791
4.02800933644548,-0.994798650269613,0.101407028487652
4.02834278092698,-0.994797789534829,0.101415396513405
4.02867622540847,-0.994796928728941,0.10142376453305
4.02900966988996,-0.994796067851949,0.101432132546586
4.02934311437146,-0.994795206903853,0.101440500554015
4.02967655885295,-0.994794345884654,0.101448868555335
4.03001000333444,-0.99479348479435,0.101457236550546
4.03034344781594,-0.994792623632943,0.101465604539648
4.03067689229743,-0.994791762400432,0.101473972522641
4.03101033677893,-0.994790901096817,0.101482340499525
4.03134378126042,-0.994790039722097,0.101490708470299
4.03167722574191,-0.994789178276275,0.101499076434964
4.03201067022341,-0.994788316759348,0.101507444393519
4.0323441147049,-0.994787455171317,0.101515812345964
4.0326775591864,-0.994786593512183,0.101524180292299
4.03301100366789,-0.994785731781944,0.101532548232524
4.03334444814938,-0.994784869980602,0.101540916166638
4.03367789263088,-0.994784008108156,0.101549284094642
4.03401133711237,-0.994783146164606,0.101557652016535
4.03434478159386,-0.994782284149952,0.101566019932317
4.03467822607536,-0.994781422064194,0.101574387841988
4.03501167055685,-0.994780559907332,0.101582755745548
4.03534511503835,-0.994779697679367,0.101591123642996
4.03567855951984,-0.994778835380297,0.101599491534333
4.03601200400133,-0.994777973010124,0.101607859419558
4.03634544848283,-0.994777110568847,0.101616227298671
4.03667889296432,-0.994776248056466,0.101624595171672
4.03701233744582,-0.994775385472981,0.101632963038561
4.03734578192731,-0.994774522818392,0.101641330899337
4.0376792264088,-0.994773660092699,0.101649698754
4.0380126708903,-0.994772797295902,0.101658066602551
4.03834611537179,-0.994771934428002,0.101666434444989
4.03867955985328,-0.994771071488997,0.101674802281314
4.03901300433478,-0.994770208478889,0.101683170111526
4.03934644881627,-0.994769345397677,0.101691537935624
4.03967989329777,-0.99476848224536,0.101699905753609
4.04001333777926,-0.99476761902194,0.101708273565479
4.04034678226075,-0.994766755727417,0.101716641371236
4.04068022674225,-0.994765892361789,0.101725009170879
4.04101367122374,-0.994765028925057,0.101733376964408
4.04134711570523,-0.994764165417222,0.101741744751822
4.04168056018673,-0.994763301838282,0.101750112533122
4.04201400466822,-0.994762438188239,0.101758480308306
4.04234744914972,-0.994761574467091,0.101766848077376
4.04268089363121,-0.99476071067484,0.101775215840331
4.0430143381127,-0.994759846811485,0.101783583597171
4.0433477825942,-0.994758982877026,0.101791951347895
4.04368122707569,-0.994758118871464,0.101800319092504
4.04401467155719,-0.994757254794797,0.101808686830997
4.04434811603868,-0.994756390647026,0.101817054563374
4.04468156052017,-0.994755526428152,0.101825422289635
4.04501500500167,-0.994754662138173,0.101833790009781
4.04534844948316,-0.994753797777091,0.101842157723809
4.04568189396466,-0.994752933344905,0.101850525431721
4.04601533844615,-0.994752068841614,0.101858893133517
4.04634878292764,-0.994751204267221,0.101867260829195
4.04668222740914,-0.994750339621722,0.101875628518757
4.04701567189063,-0.994749474905121,0.101883996202201
4.04734911637212,-0.994748610117415,0.101892363879528
4.04768256085362,-0.994747745258605,0.101900731550738
4.04801600533511,-0.994746880328692,0.10190909921583
4.04834944981661,-0.994746015327674,0.101917466874804
4.0486828942981,-0.994745150255552,0.101925834527661
4.04901633877959,-0.994744285112327,0.101934202174399
4.04934978326109,-0.994743419897998,0.101942569815019
4.04968322774258,-0.994742554612565,0.10195093744952
4.05001667222407,-0.994741689256027,0.101959305077903
4.05035011670557,-0.994740823828386,0.101967672700167
4.05068356118706,-0.994739958329642,0.101976040316312
4.05101700566856,-0.994739092759793,0.101984407926339
4.05135045015005,-0.99473822711884,0.101992775530245
4.05168389463154,-0.994737361406783,0.102001143128033
4.05201733911304,-0.994736495623622,0.102009510719701
4.05235078359453,-0.994735629769358,0.102017878305249
4.05268422807603,-0.994734763843989,0.102026245884678
4.05301767255752,-0.994733897847517,0.102034613457986
4.05335111703901,-0.99473303177994,0.102042981025175
4.05368456152051,-0.99473216564126,0.102051348586243
4.054018006002,-0.994731299431476,0.10205971614119
4.05435145048349,-0.994730433150588,0.102068083690017
4.05468489496499,-0.994729566798595,0.102076451232724
4.05501833944648,-0.994728700375499,0.102084818769309
4.05535178392798,-0.994727833881299,0.102093186299773
4.05568522840947,-0.994726967315995,0.102101553824116
4.05601867289096,-0.994726100679587,0.102109921342337
4.05635211737246,-0.994725233972075,0.102118288854437
4.05668556185395,-0.994724367193459,0.102126656360416
4.05701900633544,-0.994723500343739,0.102135023860272
4.05735245081694,-0.994722633422916,0.102143391354007
4.05768589529843,-0.994721766430988,0.102151758841619
4.05801933977993,-0.994720899367956,0.102160126323109
4.05835278426142,-0.994720032233821,0.102168493798476
4.05868622874291,-0.994719165028581,0.102176861267721
4.05901967322441,-0.994718297752237,0.102185228730843
4.0593531177059,-0.99471743040479,0.102193596187842
4.0596865621874,-0.994716562986238,0.102201963638718
4.06002000666889,-0.994715695496583,0.102210331083471
4.06035345115038,-0.994714827935823,0.102218698522101
4.06068689563188,-0.994713960303959,0.102227065954607
4.06102034011337,-0.994713092600992,0.102235433380989
4.06135378459487,-0.99471222482692,0.102243800801247
4.06168722907636,-0.994711356981745,0.102252168215382
4.06202067355785,-0.994710489065466,0.102260535623392
4.06235411803935,-0.994709621078082,0.102268903025278
4.06268756252084,-0.994708753019594,0.10227727042104
4.06302100700233,-0.994707884890003,0.102285637810676
4.06335445148383,-0.994707016689307,0.102294005194189
4.06368789596532,-0.994706148417508,0.102302372571576
4.06402134044682,-0.994705280074604,0.102310739942839
4.06435478492831,-0.994704411660597,0.102319107307976
4.0646882294098,-0.994703543175485,0.102327474666987
4.0650216738913,-0.99470267461927,0.102335842019874
4.06535511837279,-0.99470180599195,0.102344209366635
4.06568856285428,-0.994700937293527,0.102352576707269
4.06602200733578,-0.994700068523999,0.102360944041779
4.06635545181727,-0.994699199683368,0.102369311370162
4.06668889629877,-0.994698330771632,0.102377678692418
4.06702234078026,-0.994697461788792,0.102386046008549
4.06735578526175,-0.994696592734849,0.102394413318552
4.06768922974325,-0.994695723609801,0.10240278062243
4.06802267422474,-0.994694854413649,0.10241114792018
4.06835611870624,-0.994693985146393,0.102419515211804
4.06868956318773,-0.994693115808033,0.1024278824973
4.06902300766922,-0.994692246398569,0.102436249776669
4.06935645215072,-0.994691376918001,0.102444617049911
4.06968989663221,-0.994690507366329,0.102452984317025
4.0700233411137,-0.994689637743553,0.102461351578012
4.0703567855952,-0.994688768049673,0.10246971883287
4.07069023007669,-0.994687898284689,0.102478086081601
4.07102367455819,-0.9946870284486,0.102486453324204
4.07135711903968,-0.994686158541408,0.102494820560678
4.07169056352117,-0.994685288563111,0.102503187791024
4.07202400800267,-0.994684418513711,0.102511555015242
4.07235745248416,-0.994683548393206,0.10251992223333
4.07269089696566,-0.994682678201598,0.10252828944529
4.07302434144715,-0.994681807938885,0.102536656651121
4.07335778592864,-0.994680937605068,0.102545023850823
4.07369123041014,-0.994680067200147,0.102553391044396
4.07402467489163,-0.994679196724122,0.102561758231839
4.07435811937312,-0.994678326176992,0.102570125413152
4.07469156385462,-0.994677455558759,0.102578492588336
4.07502500833611,-0.994676584869422,0.102586859757391
4.07535845281761,-0.99467571410898,0.102595226920315
4.0756918972991,-0.994674843277434,0.102603594077109
4.07602534178059,-0.994673972374784,0.102611961227772
4.07635878626209,-0.99467310140103,0.102620328372306
4.07669223074358,-0.994672230356172,0.102628695510709
4.07702567522507,-0.99467135924021,0.102637062642981
4.07735911970657,-0.994670488053144,0.102645429769122
4.07769256418806,-0.994669616794974,0.102653796889133
4.07802600866956,-0.994668745465699,0.102662164003012
4.07835945315105,-0.99466787406532,0.10267053111076
4.07869289763254,-0.994667002593837,0.102678898212377
4.07902634211404,-0.99466613105125,0.102687265307862
4.07935978659553,-0.994665259437559,0.102695632397216
4.07969323107703,-0.994664387752763,0.102703999480438
4.08002667555852,-0.994663515996864,0.102712366557528
4.08036012004001,-0.99466264416986,0.102720733628485
4.08069356452151,-0.994661772271752,0.102729100693311
4.081027009003,-0.99466090030254,0.102737467752004
4.08136045348449,-0.994660028262224,0.102745834804565
4.08169389796599,-0.994659156150803,0.102754201850993
4.08202734244748,-0.994658283968278,0.102762568891289
4.08236078692898,-0.994657411714649,0.102770935925451
4.08269423141047,-0.994656539389916,0.102779302953481
4.08302767589196,-0.994655666994079,0.102787669975377
4.08336112037346,-0.994654794527137,0.10279603699114
4.08369456485495,-0.994653921989092,0.10280440400077
4.08402800933645,-0.994653049379942,0.102812771004266
4.08436145381794,-0.994652176699687,0.102821138001628
4.08469489829943,-0.994651303948329,0.102829504992856
4.08502834278093,-0.994650431125866,0.102837871977951
4.08536178726242,-0.9946495582323,0.102846238956911
4.08569523174392,-0.994648685267628,0.102854605929738
4.08602867622541,-0.994647812231853,0.102862972896429
4.0863621207069,-0.994646939124973,0.102871339856987
4.0866955651884,-0.994646065946989,0.102879706811409
4.08702900966989,-0.994645192697901,0.102888073759697
4.08736245415138,-0.994644319377709,0.10289644070185
4.08769589863288,-0.994643445986412,0.102904807637868
4.08802934311437,-0.994642572524011,0.102913174567751
4.08836278759587,-0.994641698990505,0.102921541491498
4.08869623207736,-0.994640825385896,0.10292990840911
4.08902967655885,-0.994639951710182,0.102938275320586
4.08936312104035,-0.994639077963364,0.102946642225927
4.08969656552184,-0.994638204145441,0.102955009125132
4.09003001000333,-0.994637330256415,0.102963376018201
4.09036345448483,-0.994636456296283,0.102971742905133
4.09069689896632,-0.994635582265048,0.10298010978593
4.09103034344782,-0.994634708162708,0.10298847666059
4.09136378792931,-0.994633833989264,0.102996843529114
4.0916972324108,-0.994632959744716,0.103005210391501
4.0920306768923,-0.994632085429063,0.103013577247751
4.09236412137379,-0.994631211042306,0.103021944097864
4.09269756585529,-0.994630336584445,0.103030310941841
4.09303101033678,-0.994629462055479,0.10303867777968
4.09336445481827,-0.994628587455409,0.103047044611382
4.09369789929977,-0.994627712784234,0.103055411436946
4.09403134378126,-0.994626838041955,0.103063778256373
4.09436478826275,-0.994625963228572,0.103072145069663
4.09469823274425,-0.994625088344084,0.103080511876814
4.09503167722574,-0.994624213388492,0.103088878677828
4.09536512170724,-0.994623338361796,0.103097245472704
4.09569856618873,-0.994622463263995,0.103105612261441
4.09603201067022,-0.99462158809509,0.10311397904404
4.09636545515172,-0.99462071285508,0.103122345820501
4.09669889963321,-0.994619837543966,0.103130712590823
4.09703234411471,-0.994618962161747,0.103139079355006
4.0973657885962,-0.994618086708424,0.103147446113051
4.09769923307769,-0.994617211183997,0.103155812864956
4.09803267755919,-0.994616335588465,0.103164179610723
4.09836612204068,-0.994615459921829,0.10317254635035
4.09869956652217,-0.994614584184089,0.103180913083838
4.09903301100367,-0.994613708375243,0.103189279811187
4.09936645548516,-0.994612832495294,0.103197646532396
4.09969989996666,-0.99461195654424,0.103206013247466
4.10003334444815,-0.994611080522081,0.103214379956395
4.10036678892964,-0.994610204428818,0.103222746659185
4.10070023341114,-0.994609328264451,0.103231113355835
4.10103367789263,-0.994608452028979,0.103239480046344
4.10136712237412,-0.994607575722402,0.103247846730713
4.10170056685562,-0.994606699344721,0.103256213408942
4.10203401133711,-0.994605822895936,0.10326458008103
4.10236745581861,-0.994604946376046,0.103272946746977
4.1027009003001,-0.994604069785051,0.103281313406784
4.10303434478159,-0.994603193122952,0.10328968006045
4.10336778926309,-0.994602316389749,0.103298046707975
4.10370123374458,-0.99460143958544,0.103306413349358
4.10403467822607,-0.994600562710028,0.1033147799846
4.10436812270757,-0.994599685763511,0.103323146613701
4.10470156718906,-0.994598808745889,0.10333151323666
4.10503501167056,-0.994597931657162,0.103339879853478
4.10536845615205,-0.994597054497331,0.103348246464154
4.10570190063354,-0.994596177266396,0.103356613068688
4.10603534511504,-0.994595299964356,0.10336497966708
4.10636878959653,-0.994594422591211,0.103373346259329
4.10670223407803,-0.994593545146962,0.103381712845437
4.10703567855952,-0.994592667631608,0.103390079425402
4.10736912304101,-0.994591790045149,0.103398445999225
4.10770256752251,-0.994590912387586,0.103406812566905
4.108036012004,-0.994590034658918,0.103415179128442
4.1083694564855,-0.994589156859146,0.103423545683836
4.10870290096699,-0.994588278988269,0.103431912233088
4.10903634544848,-0.994587401046288,0.103440278776196
4.10936978992998,-0.994586523033201,0.103448645313161
4.10970323441147,-0.99458564494901,0.103457011843983
4.11003667889296,-0.994584766793715,0.103465378368662
4.11037012337446,-0.994583888567314,0.103473744887197
4.11070356785595,-0.994583010269809,0.103482111399588
4.11103701233745,-0.994582131901199,0.103490477905835
4.11137045681894,-0.994581253461485,0.103498844405939
4.11170390130043,-0.994580374950666,0.103507210899898
4.11203734578193,-0.994579496368742,0.103515577387713
4.11237079026342,-0.994578617715713,0.103523943869384
4.11270423474491,-0.99457773899158,0.103532310344911
4.11303767922641,-0.994576860196342,0.103540676814293
4.1133711237079,-0.99457598133,0.10354904327753
4.1137045681894,-0.994575102392552,0.103557409734623
4.11403801267089,-0.994574223384,0.103565776185571
4.11437145715238,-0.994573344304343,0.103574142630374
4.11470490163388,-0.994572465153581,0.103582509069032
4.11503834611537,-0.994571585931715,0.103590875501545
4.11537179059687,-0.994570706638743,0.103599241927913
4.11570523507836,-0.994569827274667,0.103607608348135
4.11603867955985,-0.994568947839486,0.103615974762211
4.11637212404135,-0.994568068333201,0.103624341170142
4.11670556852284,-0.99456718875581,0.103632707571927
4.11703901300433,-0.994566309107315,0.103641073967567
4.11737245748583,-0.994565429387715,0.10364944035706
4.11770590196732,-0.99456454959701,0.103657806740407
4.11803934644882,-0.9945636697352,0.103666173117609
4.11837279093031,-0.994562789802285,0.103674539488663
4.1187062354118,-0.994561909798266,0.103682905853572
4.1190396798933,-0.994561029723141,0.103691272212333
4.11937312437479,-0.994560149576912,0.103699638564949
4.11970656885629,-0.994559269359578,0.103708004911417
4.12004001333778,-0.994558389071139,0.103716371251739
4.12037345781927,-0.994557508711595,0.103724737585913
4.12070690230077,-0.994556628280946,0.103733103913941
4.12104034678226,-0.994555747779192,0.103741470235821
4.12137379126375,-0.994554867206334,0.103749836551554
4.12170723574525,-0.99455398656237,0.10375820286114
4.12204068022674,-0.994553105847301,0.103766569164578
4.12237412470824,-0.994552225061128,0.103774935461868
4.12270756918973,-0.994551344203849,0.103783301753011
4.12304101367122,-0.994550463275466,0.103791668038006
